T2154 000:004.769   SEGGER J-Link V7.64 Log File
T2154 000:005.448   DLL Compiled: Apr  1 2022 16:04:43
T2154 000:005.454   Logging started @ 2023-10-02 05:08
T2154 000:005.460 - 5.463ms
T2154 000:005.753 JLINK_SetWarnOutHandler(...)
T2154 000:006.122 - 0.372ms
T2154 000:006.131 JLINK_OpenEx(...)
T2154 000:012.813   Firmware: J-Link ARM V8 compiled Nov 28 2014 13:44:46
T2154 000:013.191   Firmware: J-Link ARM V8 compiled Nov 28 2014 13:44:46
T2154 000:015.853   Hardware: V8.00
T2154 000:015.882   S/N: 788594195
T2154 000:015.891   OEM: SEGGER
T2154 000:015.899   Feature(s): RDI,FlashDL,FlashBP,JFlash,GDB
T2154 000:019.614   TELNET listener socket opened on port 19021
T2154 000:019.716   WEBSRV WEBSRV_Init(): Starting webserver thread(s)
T2154 000:019.815   WEBSRV Failed to put socket into listener state (port 19080)
T2154 000:019.903   WEBSRV Webserver running on local port 19081
T2154 000:040.747 - 34.632ms returns "O.K."
T2154 000:040.836 JLINK_GetEmuCaps()
T2154 000:040.845 - 0.011ms returns 0xB9FF7BBF
T2154 000:041.087 JLINK_TIF_GetAvailable(...)
T2154 000:041.463 - 0.383ms
T2154 000:041.496 JLINK_SetErrorOutHandler(...)
T2154 000:041.504 - 0.010ms
T2154 000:041.533 JLINK_ExecCommand("ProjectFile = "B:\1_GDR_Factory\GD32\03_LED_useGDSDK\Keil_project\JLinkSettings.ini"", ...). 
T2154 000:052.013 - 10.491ms returns 0x00
T2154 000:054.076 JLINK_ExecCommand("Device = GD32F303CC", ...). 
T2154 000:055.434   Device "GD32F303CC" selected.
T2154 000:055.701 - 1.611ms returns 0x00
T2154 000:055.714 JLINK_ExecCommand("DisableConnectionTimeout", ...). 
T2154 000:055.723 - 0.004ms returns 0x01
T2154 000:055.731 JLINK_GetHardwareVersion()
T2154 000:055.737 - 0.008ms returns 80000
T2154 000:055.749 JLINK_GetDLLVersion()
T2154 000:055.755 - 0.008ms returns 76400
T2154 000:055.762 JLINK_GetOEMString(...)
T2154 000:055.769 JLINK_GetFirmwareString(...)
T2154 000:055.775 - 0.008ms
T2154 000:059.078 JLINK_GetDLLVersion()
T2154 000:059.091 - 0.015ms returns 76400
T2154 000:059.099 JLINK_GetCompileDateTime()
T2154 000:059.104 - 0.008ms
T2154 000:060.181 JLINK_GetFirmwareString(...)
T2154 000:060.191 - 0.012ms
T2154 000:061.263 JLINK_GetHardwareVersion()
T2154 000:061.272 - 0.012ms returns 80000
T2154 000:062.344 JLINK_GetSN()
T2154 000:062.356 - 0.015ms returns 788594195
T2154 000:063.431 JLINK_GetOEMString(...)
T2154 000:065.625 JLINK_TIF_Select(JLINKARM_TIF_SWD)
T2154 000:066.911 - 1.295ms returns 0x00
T2154 000:067.228 JLINK_HasError()
T2154 000:067.246 JLINK_SetSpeed(5000)
T2154 000:067.384 - 0.143ms
T2154 000:067.417 JLINK_GetId()
T2154 000:069.689   Found SW-DP with ID 0x2BA01477
T2154 000:074.840   Old FW that does not support reading DPIDR via DAP jobs
T2154 000:080.187   DPv0 detected
T2154 000:081.290   CoreSight SoC-400 or earlier
T2154 000:091.413   Scanning AP map to find all available APs
T2154 000:097.567   AP[1]: Stopped AP scan as end of AP map has been reached
T2154 000:100.397   AP[0]: AHB-AP (IDR: 0x24770011)
T2154 000:103.164   Iterating through AP map to find AHB-AP to use
T2154 000:112.842   AP[0]: Core found
T2154 000:117.142   AP[0]: AHB-AP ROM base: 0xE00FF000
T2154 000:124.473   CPUID register: 0x410FC241. Implementer code: 0x41 (ARM)
T2154 000:127.461   Found Cortex-M4 r0p1, Little endian.
T2154 000:228.803   -- Max. mem block: 0x0000E3F8
T2154 000:229.175   CPU_ReadMem(4 bytes @ 0xE000EDF0)
T2154 000:229.985   CPU_ReadMem(4 bytes @ 0xE0002000)
T2154 000:234.131   FPUnit: 6 code (BP) slots and 2 literal slots
T2154 000:234.158   CPU_ReadMem(4 bytes @ 0xE000EDFC)
T2154 000:234.678   CPU_ReadMem(4 bytes @ 0xE0001000)
T2154 000:235.255   CPU_WriteMem(4 bytes @ 0xE0001000)
T2154 000:235.838   CPU_ReadMem(4 bytes @ 0xE000ED88)
T2154 000:236.379   CPU_WriteMem(4 bytes @ 0xE000ED88)
T2154 000:236.883   CPU_ReadMem(4 bytes @ 0xE000ED88)
T2154 000:237.353   CPU_WriteMem(4 bytes @ 0xE000ED88)
T2154 000:242.036   CoreSight components:
T2154 000:245.035   ROMTbl[0] @ E00FF000
T2154 000:245.054   CPU_ReadMem(64 bytes @ 0xE00FF000)
T2154 000:246.268   CPU_ReadMem(32 bytes @ 0xE000EFE0)
T2154 000:250.908   [0][0]: E000E000 CID B105E00D PID 000BB00C SCS-M7
T2154 000:250.938   CPU_ReadMem(32 bytes @ 0xE0001FE0)
T2154 000:257.845   [0][1]: E0001000 CID B105E00D PID 003BB002 DWT
T2154 000:257.874   CPU_ReadMem(32 bytes @ 0xE0002FE0)
T2154 000:261.685   [0][2]: E0002000 CID B105E00D PID 002BB003 FPB
T2154 000:261.704   CPU_ReadMem(32 bytes @ 0xE0000FE0)
T2154 000:266.301   [0][3]: E0000000 CID B105E00D PID 003BB001 ITM
T2154 000:266.331   CPU_ReadMem(32 bytes @ 0xE0040FE0)
T2154 000:271.584   [0][4]: E0040000 CID B105900D PID 000BB9A1 TPIU
T2154 000:271.610   CPU_ReadMem(32 bytes @ 0xE0041FE0)
T2154 000:275.386   [0][5]: E0041000 CID 00000000 PID 00000000 ???
T2154 000:276.570 - 209.160ms returns 0x2BA01477
T2154 000:276.611 JLINK_GetDLLVersion()
T2154 000:276.618 - 0.010ms returns 76400
T2154 000:276.628 JLINK_CORE_GetFound()
T2154 000:276.634 - 0.008ms returns 0xE0000FF
T2154 000:276.643 JLINK_GetDebugInfo(0x100 = JLINKARM_ROM_TABLE_ADDR_INDEX)
T2154 000:276.649   Value=0xE00FF000
T2154 000:276.658 - 0.017ms returns 0
T2154 000:279.686 JLINK_GetDebugInfo(0x100 = JLINKARM_ROM_TABLE_ADDR_INDEX)
T2154 000:279.698   Value=0xE00FF000
T2154 000:279.706 - 0.023ms returns 0
T2154 000:279.714 JLINK_GetDebugInfo(0x101 = JLINKARM_DEBUG_INFO_ETM_ADDR_INDEX)
T2154 000:279.720   Value=0x00000000
T2154 000:279.728 - 0.016ms returns 0
T2154 000:279.742 JLINK_ReadMemEx(0xE0041FF0, 0x10 Bytes, Flags = 0x02000004)
T2154 000:279.767   CPU_ReadMem(16 bytes @ 0xE0041FF0)
T2154 000:281.086   Data:  00 00 00 00 00 00 00 00 00 00 00 00 00 00 00 00
T2154 000:281.113 - 1.374ms returns 16 (0x10)
T2154 000:281.168 JLINK_GetDebugInfo(0x102 = JLINKARM_DEBUG_INFO_MTB_ADDR_INDEX)
T2154 000:281.180   Value=0x00000000
T2154 000:281.189 - 0.024ms returns 0
T2154 000:281.198 JLINK_GetDebugInfo(0x103 = JLINKARM_DEBUG_INFO_TPIU_ADDR_INDEX)
T2154 000:281.206   Value=0xE0040000
T2154 000:281.216 - 0.021ms returns 0
T2154 000:281.225 JLINK_GetDebugInfo(0x104 = JLINKARM_DEBUG_INFO_ITM_ADDR_INDEX)
T2154 000:281.232   Value=0xE0000000
T2154 000:281.241 - 0.019ms returns 0
T2154 000:281.250 JLINK_GetDebugInfo(0x105 = JLINKARM_DEBUG_INFO_DWT_ADDR_INDEX)
T2154 000:281.256   Value=0xE0001000
T2154 000:281.265 - 0.019ms returns 0
T2154 000:281.276 JLINK_GetDebugInfo(0x106 = JLINKARM_DEBUG_INFO_FPB_ADDR_INDEX)
T2154 000:281.286   Value=0xE0002000
T2154 000:281.298 - 0.028ms returns 0
T2154 000:281.318 JLINK_GetDebugInfo(0x107 = JLINKARM_DEBUG_INFO_NVIC_ADDR_INDEX)
T2154 000:281.337   Value=0xE000E000
T2154 000:281.348 - 0.032ms returns 0
T2154 000:281.358 JLINK_GetDebugInfo(0x10C = JLINKARM_DEBUG_INFO_DBG_ADDR_INDEX)
T2154 000:281.368   Value=0xE000EDF0
T2154 000:281.380 - 0.025ms returns 0
T2154 000:281.391 JLINK_GetDebugInfo(0x01 = Unknown)
T2154 000:281.402   Value=0x00000001
T2154 000:281.412 - 0.023ms returns 0
T2154 000:281.422 JLINK_ReadMemU32(0xE000ED00, 0x1 Items)
T2154 000:281.441   CPU_ReadMem(4 bytes @ 0xE000ED00)
T2154 000:282.195   Data:  41 C2 0F 41
T2154 000:282.220   Debug reg: CPUID
T2154 000:282.228 - 0.809ms returns 1 (0x1)
T2154 000:282.268 JLINK_GetDebugInfo(0x10F = JLINKARM_DEBUG_INFO_HAS_CORTEX_M_SECURITY_EXT_INDEX)
T2154 000:282.277   Value=0x00000000
T2154 000:282.285 - 0.019ms returns 0
T2154 000:282.293 JLINK_HasError()
T2154 000:282.301 JLINK_SetResetType(JLINKARM_CM3_RESET_TYPE_NORMAL)
T2154 000:282.307 - 0.008ms returns JLINKARM_CM3_RESET_TYPE_NORMAL
T2154 000:282.315 JLINK_Reset()
T2154 000:283.446   CPU is running
T2154 000:283.469   CPU_WriteMem(4 bytes @ 0xE000EDF0)
T2154 000:284.088   CPU is running
T2154 000:284.113   CPU_WriteMem(4 bytes @ 0xE000EDFC)
T2154 000:288.335   Reset: Halt core after reset via DEMCR.VC_CORERESET.
T2154 000:292.619   Reset: Reset device via AIRCR.SYSRESETREQ.
T2154 000:292.637   CPU is running
T2154 000:292.647   CPU_WriteMem(4 bytes @ 0xE000ED0C)
T2154 000:346.513   CPU_ReadMem(4 bytes @ 0xE000EDF0)
T2154 000:347.246   CPU_ReadMem(4 bytes @ 0xE000EDF0)
T2154 000:347.857   CPU is running
T2154 000:347.897   CPU_WriteMem(4 bytes @ 0xE000EDF0)
T2154 000:349.479   CPU is running
T2154 000:349.505   CPU_WriteMem(4 bytes @ 0xE000EDFC)
T2154 000:357.279   CPU_ReadMem(4 bytes @ 0xE000EDF0)
T2154 000:363.222   CPU_WriteMem(4 bytes @ 0xE0002000)
T2154 000:363.955   CPU_ReadMem(4 bytes @ 0xE000EDFC)
T2154 000:364.804   CPU_ReadMem(4 bytes @ 0xE0001000)
T2154 000:367.111 - 84.830ms
T2154 000:367.271 JLINK_Halt()
T2154 000:367.296 - 0.033ms returns 0x00
T2154 000:367.329 JLINK_ReadMemU32(0xE000EDF0, 0x1 Items)
T2154 000:367.366   CPU_ReadMem(4 bytes @ 0xE000EDF0)
T2154 000:369.112   Data:  03 00 03 00
T2154 000:369.160   Debug reg: DHCSR
T2154 000:369.182 - 1.860ms returns 1 (0x1)
T2154 000:369.820 JLINK_WriteU32_64(0xE000EDF0, 0xA05F0003)
T2154 000:369.861   Debug reg: DHCSR
T2154 000:372.942   CPU_WriteMem(4 bytes @ 0xE000EDF0)
T2154 000:373.940 - 4.163ms returns 0 (0x00000000)
T2154 000:374.111 JLINK_WriteU32_64(0xE000EDFC, 0x01000000)
T2154 000:374.146   Debug reg: DEMCR
T2154 000:374.206   CPU_WriteMem(4 bytes @ 0xE000EDFC)
T2154 000:375.201 - 1.128ms returns 0 (0x00000000)
T2154 000:391.531 JLINK_GetHWStatus(...)
T2154 000:391.937 - 0.415ms returns 0
T2154 000:401.127 JLINK_GetNumBPUnits(Type = 0xFFFFFF00)
T2154 000:401.149 - 0.025ms returns 0x06
T2154 000:401.158 JLINK_GetNumBPUnits(Type = 0xF0)
T2154 000:401.164 - 0.008ms returns 0x2000
T2154 000:401.171 JLINK_GetNumWPUnits()
T2154 000:401.177 - 0.008ms returns 4
T2154 000:409.403 JLINK_GetSpeed()
T2154 000:409.418 - 0.018ms returns 4000
T2154 000:415.702 JLINK_ReadMemU32(0xE000E004, 0x1 Items)
T2154 000:415.737   CPU_ReadMem(4 bytes @ 0xE000E004)
T2154 000:416.690   Data:  02 00 00 00
T2154 000:416.715 - 1.015ms returns 1 (0x1)
T2154 000:416.758 JLINK_ReadMemU32(0xE000E004, 0x1 Items)
T2154 000:416.777   CPU_ReadMem(4 bytes @ 0xE000E004)
T2154 000:417.371   Data:  02 00 00 00
T2154 000:417.395 - 0.639ms returns 1 (0x1)
T2154 000:417.438 JLINK_WriteMemEx(0xE0001000, 0x0000001C Bytes, Flags = 0x02000004)
T2154 000:417.448   Data:  01 00 00 00 00 00 00 00 00 00 00 00 00 00 00 00 ...
T2154 000:417.467   CPU_WriteMem(28 bytes @ 0xE0001000)
T2154 000:418.242 - 0.821ms returns 0x1C
T2154 000:418.307 JLINK_Halt()
T2154 000:418.317 - 0.012ms returns 0x00
T2154 000:418.324 JLINK_IsHalted()
T2154 000:418.331 - 0.009ms returns TRUE
T2154 000:423.422 JLINK_WriteMem(0x20000000, 0x13C Bytes, ...)
T2154 000:423.435   Data:  00 BE 0A E0 0D 78 2D 06 68 40 08 24 40 00 00 D3 ...
T2154 000:423.736   CPU_WriteMem(316 bytes @ 0x20000000)
T2154 000:427.356 - 3.941ms returns 0x13C
T2154 000:427.411 JLINK_HasError()
T2154 000:427.422 JLINK_WriteReg(R0, 0x08000000)
T2154 000:427.437 - 0.018ms returns 0
T2154 000:427.445 JLINK_WriteReg(R1, 0x00B71B00)
T2154 000:427.452 - 0.009ms returns 0
T2154 000:427.459 JLINK_WriteReg(R2, 0x00000001)
T2154 000:427.465 - 0.008ms returns 0
T2154 000:427.472 JLINK_WriteReg(R3, 0x00000000)
T2154 000:427.478 - 0.008ms returns 0
T2154 000:427.485 JLINK_WriteReg(R4, 0x00000000)
T2154 000:427.490 - 0.008ms returns 0
T2154 000:427.497 JLINK_WriteReg(R5, 0x00000000)
T2154 000:427.503 - 0.008ms returns 0
T2154 000:427.510 JLINK_WriteReg(R6, 0x00000000)
T2154 000:427.516 - 0.008ms returns 0
T2154 000:427.523 JLINK_WriteReg(R7, 0x00000000)
T2154 000:427.529 - 0.008ms returns 0
T2154 000:427.536 JLINK_WriteReg(R8, 0x00000000)
T2154 000:428.095 - 0.562ms returns 0
T2154 000:428.104 JLINK_WriteReg(R9, 0x20000134)
T2154 000:428.111 - 0.009ms returns 0
T2154 000:428.118 JLINK_WriteReg(R10, 0x00000000)
T2154 000:428.124 - 0.009ms returns 0
T2154 000:428.131 JLINK_WriteReg(R11, 0x00000000)
T2154 000:428.137 - 0.008ms returns 0
T2154 000:428.145 JLINK_WriteReg(R12, 0x00000000)
T2154 000:428.151 - 0.008ms returns 0
T2154 000:428.158 JLINK_WriteReg(R13 (SP), 0x20001000)
T2154 000:428.164 - 0.009ms returns 0
T2154 000:428.172 JLINK_WriteReg(R14, 0x20000001)
T2154 000:428.178 - 0.008ms returns 0
T2154 000:428.185 JLINK_WriteReg(R15 (PC), 0x20000038)
T2154 000:428.739 - 0.558ms returns 0
T2154 000:428.751 JLINK_WriteReg(XPSR, 0x01000000)
T2154 000:428.760 - 0.011ms returns 0
T2154 000:428.767 JLINK_WriteReg(MSP, 0x20001000)
T2154 000:428.773 - 0.009ms returns 0
T2154 000:428.781 JLINK_WriteReg(PSP, 0x20001000)
T2154 000:428.787 - 0.008ms returns 0
T2154 000:428.794 JLINK_WriteReg(CFBP, 0x00000000)
T2154 000:428.800 - 0.008ms returns 0
T2154 000:428.807 JLINK_SetBPEx(Addr = 0x20000000, Type = 0xFFFFFFF2)
T2154 000:429.404   CPU_ReadMem(2 bytes @ 0x20000000)
T2154 000:430.197 - 1.396ms returns 0x00000001
T2154 000:430.233 JLINK_Go()
T2154 000:430.244   CPU_WriteMem(2 bytes @ 0x20000000)
T2154 000:430.818   CPU_ReadMem(4 bytes @ 0xE0001000)
T2154 000:431.700   CPU_WriteMem(4 bytes @ 0xE0002008)
T2154 000:431.715   CPU_WriteMem(4 bytes @ 0xE000200C)
T2154 000:431.724   CPU_WriteMem(4 bytes @ 0xE0002010)
T2154 000:431.746   CPU_WriteMem(4 bytes @ 0xE0002014)
T2154 000:431.772   CPU_WriteMem(4 bytes @ 0xE0002018)
T2154 000:431.802   CPU_WriteMem(4 bytes @ 0xE000201C)
T2154 000:434.294   CPU_WriteMem(4 bytes @ 0xE0001004)
T2154 000:437.366 - 7.141ms
T2154 000:437.408 JLINK_IsHalted()
T2154 000:439.753   CPU_ReadMem(2 bytes @ 0x20000000)
T2154 000:440.139 - 2.737ms returns TRUE
T2154 000:440.175 JLINK_ReadReg(R15 (PC))
T2154 000:440.185 - 0.013ms returns 0x20000000
T2154 000:440.193 JLINK_ClrBPEx(BPHandle = 0x00000001)
T2154 000:440.200 - 0.009ms returns 0x00
T2154 000:440.207 JLINK_ReadReg(R0)
T2154 000:440.213 - 0.008ms returns 0x00000000
T2154 000:440.510 JLINK_HasError()
T2154 000:440.522 JLINK_WriteReg(R0, 0x08000000)
T2154 000:440.529 - 0.010ms returns 0
T2154 000:440.537 JLINK_WriteReg(R1, 0x00000800)
T2154 000:440.543 - 0.009ms returns 0
T2154 000:440.550 JLINK_WriteReg(R2, 0x000000FF)
T2154 000:440.556 - 0.008ms returns 0
T2154 000:440.564 JLINK_WriteReg(R3, 0x00000000)
T2154 000:440.569 - 0.008ms returns 0
T2154 000:440.577 JLINK_WriteReg(R4, 0x00000000)
T2154 000:440.583 - 0.008ms returns 0
T2154 000:440.590 JLINK_WriteReg(R5, 0x00000000)
T2154 000:440.596 - 0.008ms returns 0
T2154 000:440.603 JLINK_WriteReg(R6, 0x00000000)
T2154 000:440.609 - 0.008ms returns 0
T2154 000:440.616 JLINK_WriteReg(R7, 0x00000000)
T2154 000:440.622 - 0.008ms returns 0
T2154 000:440.629 JLINK_WriteReg(R8, 0x00000000)
T2154 000:440.635 - 0.008ms returns 0
T2154 000:440.642 JLINK_WriteReg(R9, 0x20000134)
T2154 000:440.648 - 0.008ms returns 0
T2154 000:440.655 JLINK_WriteReg(R10, 0x00000000)
T2154 000:440.661 - 0.008ms returns 0
T2154 000:440.668 JLINK_WriteReg(R11, 0x00000000)
T2154 000:440.674 - 0.008ms returns 0
T2154 000:440.681 JLINK_WriteReg(R12, 0x00000000)
T2154 000:440.687 - 0.008ms returns 0
T2154 000:440.694 JLINK_WriteReg(R13 (SP), 0x20001000)
T2154 000:440.700 - 0.009ms returns 0
T2154 000:440.708 JLINK_WriteReg(R14, 0x20000001)
T2154 000:440.714 - 0.008ms returns 0
T2154 000:440.721 JLINK_WriteReg(R15 (PC), 0x20000020)
T2154 000:440.727 - 0.008ms returns 0
T2154 000:440.734 JLINK_WriteReg(XPSR, 0x01000000)
T2154 000:440.740 - 0.008ms returns 0
T2154 000:440.747 JLINK_WriteReg(MSP, 0x20001000)
T2154 000:440.753 - 0.008ms returns 0
T2154 000:440.760 JLINK_WriteReg(PSP, 0x20001000)
T2154 000:440.766 - 0.008ms returns 0
T2154 000:440.773 JLINK_WriteReg(CFBP, 0x00000000)
T2154 000:440.779 - 0.008ms returns 0
T2154 000:440.786 JLINK_SetBPEx(Addr = 0x20000000, Type = 0xFFFFFFF2)
T2154 000:440.793 - 0.009ms returns 0x00000002
T2154 000:440.801 JLINK_Go()
T2154 000:440.812   CPU_ReadMem(4 bytes @ 0xE0001000)
T2154 000:443.552 - 2.758ms
T2154 000:443.589 JLINK_IsHalted()
T2154 000:446.121   CPU_ReadMem(2 bytes @ 0x20000000)
T2154 000:446.550 - 2.968ms returns TRUE
T2154 000:446.591 JLINK_ReadReg(R15 (PC))
T2154 000:446.601 - 0.013ms returns 0x20000000
T2154 000:446.609 JLINK_ClrBPEx(BPHandle = 0x00000002)
T2154 000:446.642 - 0.036ms returns 0x00
T2154 000:446.657 JLINK_ReadReg(R0)
T2154 000:446.668 - 0.013ms returns 0x00000001
T2154 000:446.691 JLINK_HasError()
T2154 000:446.718 JLINK_WriteReg(R0, 0x08000000)
T2154 000:446.725 - 0.029ms returns 0
T2154 000:446.792 JLINK_WriteReg(R1, 0x00000800)
T2154 000:446.803 - 0.012ms returns 0
T2154 000:446.810 JLINK_WriteReg(R2, 0x000000FF)
T2154 000:446.816 - 0.008ms returns 0
T2154 000:446.823 JLINK_WriteReg(R3, 0x00000000)
T2154 000:446.829 - 0.008ms returns 0
T2154 000:446.837 JLINK_WriteReg(R4, 0x00000000)
T2154 000:446.842 - 0.008ms returns 0
T2154 000:446.849 JLINK_WriteReg(R5, 0x00000000)
T2154 000:446.855 - 0.008ms returns 0
T2154 000:446.862 JLINK_WriteReg(R6, 0x00000000)
T2154 000:446.868 - 0.008ms returns 0
T2154 000:446.875 JLINK_WriteReg(R7, 0x00000000)
T2154 000:446.880 - 0.008ms returns 0
T2154 000:446.889 JLINK_WriteReg(R8, 0x00000000)
T2154 000:446.895 - 0.008ms returns 0
T2154 000:446.902 JLINK_WriteReg(R9, 0x20000134)
T2154 000:446.907 - 0.008ms returns 0
T2154 000:446.915 JLINK_WriteReg(R10, 0x00000000)
T2154 000:446.921 - 0.008ms returns 0
T2154 000:446.928 JLINK_WriteReg(R11, 0x00000000)
T2154 000:446.934 - 0.008ms returns 0
T2154 000:446.941 JLINK_WriteReg(R12, 0x00000000)
T2154 000:446.947 - 0.008ms returns 0
T2154 000:446.954 JLINK_WriteReg(R13 (SP), 0x20001000)
T2154 000:446.960 - 0.008ms returns 0
T2154 000:446.968 JLINK_WriteReg(R14, 0x20000001)
T2154 000:446.974 - 0.008ms returns 0
T2154 000:446.982 JLINK_WriteReg(R15 (PC), 0x200000A8)
T2154 000:446.988 - 0.008ms returns 0
T2154 000:446.996 JLINK_WriteReg(XPSR, 0x01000000)
T2154 000:447.002 - 0.008ms returns 0
T2154 000:447.010 JLINK_WriteReg(MSP, 0x20001000)
T2154 000:447.016 - 0.008ms returns 0
T2154 000:447.024 JLINK_WriteReg(PSP, 0x20001000)
T2154 000:447.030 - 0.008ms returns 0
T2154 000:447.041 JLINK_WriteReg(CFBP, 0x00000000)
T2154 000:447.047 - 0.008ms returns 0
T2154 000:447.058 JLINK_SetBPEx(Addr = 0x20000000, Type = 0xFFFFFFF2)
T2154 000:447.065 - 0.009ms returns 0x00000003
T2154 000:447.072 JLINK_Go()
T2154 000:447.083   CPU_ReadMem(4 bytes @ 0xE0001000)
T2154 000:449.811 - 2.750ms
T2154 000:449.854 JLINK_IsHalted()
T2154 000:450.282 - 0.434ms returns FALSE
T2154 000:450.320 JLINK_HasError()
T2154 000:464.169 JLINK_IsHalted()
T2154 000:464.760 - 0.605ms returns FALSE
T2154 000:464.813 JLINK_HasError()
T2154 000:466.973 JLINK_IsHalted()
T2154 000:467.780 - 0.839ms returns FALSE
T2154 000:467.966 JLINK_HasError()
T2154 000:469.894 JLINK_IsHalted()
T2154 000:472.975   CPU_ReadMem(2 bytes @ 0x20000000)
T2154 000:473.642 - 3.755ms returns TRUE
T2154 000:473.698 JLINK_ReadReg(R15 (PC))
T2154 000:473.714 - 0.021ms returns 0x20000000
T2154 000:473.729 JLINK_ClrBPEx(BPHandle = 0x00000003)
T2154 000:473.739 - 0.015ms returns 0x00
T2154 000:473.754 JLINK_ReadReg(R0)
T2154 000:473.764 - 0.013ms returns 0x00000000
T2154 000:474.416 JLINK_HasError()
T2154 000:474.428 JLINK_WriteReg(R0, 0x08000800)
T2154 000:474.436 - 0.011ms returns 0
T2154 000:474.444 JLINK_WriteReg(R1, 0x00000800)
T2154 000:474.450 - 0.008ms returns 0
T2154 000:474.457 JLINK_WriteReg(R2, 0x000000FF)
T2154 000:474.463 - 0.008ms returns 0
T2154 000:474.470 JLINK_WriteReg(R3, 0x00000000)
T2154 000:474.476 - 0.008ms returns 0
T2154 000:474.482 JLINK_WriteReg(R4, 0x00000000)
T2154 000:474.488 - 0.008ms returns 0
T2154 000:474.495 JLINK_WriteReg(R5, 0x00000000)
T2154 000:474.501 - 0.008ms returns 0
T2154 000:474.508 JLINK_WriteReg(R6, 0x00000000)
T2154 000:474.514 - 0.008ms returns 0
T2154 000:474.521 JLINK_WriteReg(R7, 0x00000000)
T2154 000:474.526 - 0.008ms returns 0
T2154 000:474.533 JLINK_WriteReg(R8, 0x00000000)
T2154 000:474.539 - 0.008ms returns 0
T2154 000:474.546 JLINK_WriteReg(R9, 0x20000134)
T2154 000:474.552 - 0.008ms returns 0
T2154 000:474.559 JLINK_WriteReg(R10, 0x00000000)
T2154 000:474.565 - 0.008ms returns 0
T2154 000:474.572 JLINK_WriteReg(R11, 0x00000000)
T2154 000:474.577 - 0.008ms returns 0
T2154 000:474.584 JLINK_WriteReg(R12, 0x00000000)
T2154 000:474.590 - 0.008ms returns 0
T2154 000:474.597 JLINK_WriteReg(R13 (SP), 0x20001000)
T2154 000:474.604 - 0.009ms returns 0
T2154 000:474.610 JLINK_WriteReg(R14, 0x20000001)
T2154 000:474.616 - 0.008ms returns 0
T2154 000:474.627 JLINK_WriteReg(R15 (PC), 0x20000020)
T2154 000:474.636 - 0.011ms returns 0
T2154 000:474.643 JLINK_WriteReg(XPSR, 0x01000000)
T2154 000:474.649 - 0.008ms returns 0
T2154 000:474.656 JLINK_WriteReg(MSP, 0x20001000)
T2154 000:474.661 - 0.008ms returns 0
T2154 000:474.668 JLINK_WriteReg(PSP, 0x20001000)
T2154 000:474.674 - 0.008ms returns 0
T2154 000:474.681 JLINK_WriteReg(CFBP, 0x00000000)
T2154 000:474.687 - 0.008ms returns 0
T2154 000:474.694 JLINK_SetBPEx(Addr = 0x20000000, Type = 0xFFFFFFF2)
T2154 000:474.701 - 0.009ms returns 0x00000004
T2154 000:474.708 JLINK_Go()
T2154 000:474.720   CPU_ReadMem(4 bytes @ 0xE0001000)
T2154 000:477.882 - 3.200ms
T2154 000:478.008 JLINK_IsHalted()
T2154 000:481.152   CPU_ReadMem(2 bytes @ 0x20000000)
T2154 000:482.040 - 4.064ms returns TRUE
T2154 000:482.197 JLINK_ReadReg(R15 (PC))
T2154 000:482.240 - 0.055ms returns 0x20000000
T2154 000:482.272 JLINK_ClrBPEx(BPHandle = 0x00000004)
T2154 000:482.298 - 0.038ms returns 0x00
T2154 000:482.328 JLINK_ReadReg(R0)
T2154 000:482.352 - 0.035ms returns 0x00000001
T2154 000:482.383 JLINK_HasError()
T2154 000:482.413 JLINK_WriteReg(R0, 0x08000800)
T2154 000:482.440 - 0.038ms returns 0
T2154 000:482.469 JLINK_WriteReg(R1, 0x00000800)
T2154 000:482.509 - 0.054ms returns 0
T2154 000:482.542 JLINK_WriteReg(R2, 0x000000FF)
T2154 000:482.566 - 0.035ms returns 0
T2154 000:482.594 JLINK_WriteReg(R3, 0x00000000)
T2154 000:482.618 - 0.034ms returns 0
T2154 000:482.646 JLINK_WriteReg(R4, 0x00000000)
T2154 000:482.670 - 0.034ms returns 0
T2154 000:482.698 JLINK_WriteReg(R5, 0x00000000)
T2154 000:482.721 - 0.034ms returns 0
T2154 000:482.750 JLINK_WriteReg(R6, 0x00000000)
T2154 000:482.773 - 0.034ms returns 0
T2154 000:482.801 JLINK_WriteReg(R7, 0x00000000)
T2154 000:482.825 - 0.034ms returns 0
T2154 000:482.853 JLINK_WriteReg(R8, 0x00000000)
T2154 000:482.877 - 0.034ms returns 0
T2154 000:482.905 JLINK_WriteReg(R9, 0x20000134)
T2154 000:482.928 - 0.034ms returns 0
T2154 000:482.957 JLINK_WriteReg(R10, 0x00000000)
T2154 000:482.981 - 0.034ms returns 0
T2154 000:483.009 JLINK_WriteReg(R11, 0x00000000)
T2154 000:483.032 - 0.034ms returns 0
T2154 000:483.060 JLINK_WriteReg(R12, 0x00000000)
T2154 000:483.083 - 0.034ms returns 0
T2154 000:483.111 JLINK_WriteReg(R13 (SP), 0x20001000)
T2154 000:483.135 - 0.035ms returns 0
T2154 000:483.164 JLINK_WriteReg(R14, 0x20000001)
T2154 000:483.187 - 0.034ms returns 0
T2154 000:483.215 JLINK_WriteReg(R15 (PC), 0x200000A8)
T2154 000:483.239 - 0.034ms returns 0
T2154 000:483.267 JLINK_WriteReg(XPSR, 0x01000000)
T2154 000:483.290 - 0.034ms returns 0
T2154 000:483.322 JLINK_WriteReg(MSP, 0x20001000)
T2154 000:483.358 - 0.052ms returns 0
T2154 000:483.399 JLINK_WriteReg(PSP, 0x20001000)
T2154 000:483.435 - 0.052ms returns 0
T2154 000:483.469 JLINK_WriteReg(CFBP, 0x00000000)
T2154 000:483.493 - 0.034ms returns 0
T2154 000:483.521 JLINK_SetBPEx(Addr = 0x20000000, Type = 0xFFFFFFF2)
T2154 000:483.548 - 0.038ms returns 0x00000005
T2154 000:483.577 JLINK_Go()
T2154 000:483.621   CPU_ReadMem(4 bytes @ 0xE0001000)
T2154 000:487.584 - 4.038ms
T2154 000:487.735 JLINK_IsHalted()
T2154 000:488.511 - 0.806ms returns FALSE
T2154 000:488.660 JLINK_HasError()
T2154 000:490.295 JLINK_IsHalted()
T2154 000:491.099 - 0.835ms returns FALSE
T2154 000:491.249 JLINK_HasError()
T2154 000:493.177 JLINK_IsHalted()
T2154 000:494.472 - 1.325ms returns FALSE
T2154 000:494.622 JLINK_HasError()
T2154 000:496.437 JLINK_IsHalted()
T2154 000:497.253 - 0.847ms returns FALSE
T2154 000:497.453 JLINK_HasError()
T2154 000:499.382 JLINK_IsHalted()
T2154 000:500.246 - 0.898ms returns FALSE
T2154 000:500.433 JLINK_HasError()
T2154 000:502.418 JLINK_IsHalted()
T2154 000:503.249 - 0.862ms returns FALSE
T2154 000:503.406 JLINK_HasError()
T2154 000:505.412 JLINK_IsHalted()
T2154 000:508.784   CPU_ReadMem(2 bytes @ 0x20000000)
T2154 000:509.612 - 4.231ms returns TRUE
T2154 000:509.763 JLINK_ReadReg(R15 (PC))
T2154 000:509.804 - 0.053ms returns 0x20000000
T2154 000:509.836 JLINK_ClrBPEx(BPHandle = 0x00000005)
T2154 000:509.880 - 0.056ms returns 0x00
T2154 000:509.910 JLINK_ReadReg(R0)
T2154 000:509.935 - 0.036ms returns 0x00000000
T2154 000:511.692 JLINK_HasError()
T2154 000:511.739 JLINK_WriteReg(R0, 0x08001000)
T2154 000:511.769 - 0.042ms returns 0
T2154 000:511.799 JLINK_WriteReg(R1, 0x00000800)
T2154 000:511.824 - 0.035ms returns 0
T2154 000:511.852 JLINK_WriteReg(R2, 0x000000FF)
T2154 000:511.875 - 0.034ms returns 0
T2154 000:511.903 JLINK_WriteReg(R3, 0x00000000)
T2154 000:511.926 - 0.034ms returns 0
T2154 000:511.954 JLINK_WriteReg(R4, 0x00000000)
T2154 000:511.977 - 0.034ms returns 0
T2154 000:512.005 JLINK_WriteReg(R5, 0x00000000)
T2154 000:512.028 - 0.034ms returns 0
T2154 000:512.056 JLINK_WriteReg(R6, 0x00000000)
T2154 000:512.083 - 0.038ms returns 0
T2154 000:512.111 JLINK_WriteReg(R7, 0x00000000)
T2154 000:512.134 - 0.034ms returns 0
T2154 000:512.162 JLINK_WriteReg(R8, 0x00000000)
T2154 000:512.185 - 0.034ms returns 0
T2154 000:512.213 JLINK_WriteReg(R9, 0x20000134)
T2154 000:512.236 - 0.034ms returns 0
T2154 000:512.264 JLINK_WriteReg(R10, 0x00000000)
T2154 000:512.288 - 0.034ms returns 0
T2154 000:512.315 JLINK_WriteReg(R11, 0x00000000)
T2154 000:512.338 - 0.033ms returns 0
T2154 000:512.366 JLINK_WriteReg(R12, 0x00000000)
T2154 000:512.389 - 0.034ms returns 0
T2154 000:512.417 JLINK_WriteReg(R13 (SP), 0x20001000)
T2154 000:512.442 - 0.035ms returns 0
T2154 000:512.470 JLINK_WriteReg(R14, 0x20000001)
T2154 000:512.493 - 0.034ms returns 0
T2154 000:512.521 JLINK_WriteReg(R15 (PC), 0x20000020)
T2154 000:512.544 - 0.034ms returns 0
T2154 000:512.572 JLINK_WriteReg(XPSR, 0x01000000)
T2154 000:512.596 - 0.034ms returns 0
T2154 000:512.624 JLINK_WriteReg(MSP, 0x20001000)
T2154 000:512.647 - 0.034ms returns 0
T2154 000:512.675 JLINK_WriteReg(PSP, 0x20001000)
T2154 000:512.698 - 0.034ms returns 0
T2154 000:512.726 JLINK_WriteReg(CFBP, 0x00000000)
T2154 000:512.749 - 0.033ms returns 0
T2154 000:512.777 JLINK_SetBPEx(Addr = 0x20000000, Type = 0xFFFFFFF2)
T2154 000:512.803 - 0.037ms returns 0x00000006
T2154 000:512.832 JLINK_Go()
T2154 000:512.875   CPU_ReadMem(4 bytes @ 0xE0001000)
T2154 000:517.014 - 4.224ms
T2154 000:517.215 JLINK_IsHalted()
T2154 000:520.539   CPU_ReadMem(2 bytes @ 0x20000000)
T2154 000:521.328 - 4.143ms returns TRUE
T2154 000:521.479 JLINK_ReadReg(R15 (PC))
T2154 000:521.520 - 0.053ms returns 0x20000000
T2154 000:521.551 JLINK_ClrBPEx(BPHandle = 0x00000006)
T2154 000:521.578 - 0.037ms returns 0x00
T2154 000:521.608 JLINK_ReadReg(R0)
T2154 000:521.632 - 0.035ms returns 0x00000001
T2154 000:521.663 JLINK_HasError()
T2154 000:521.692 JLINK_WriteReg(R0, 0x08001000)
T2154 000:521.719 - 0.037ms returns 0
T2154 000:521.747 JLINK_WriteReg(R1, 0x00000800)
T2154 000:521.771 - 0.035ms returns 0
T2154 000:521.800 JLINK_WriteReg(R2, 0x000000FF)
T2154 000:521.824 - 0.035ms returns 0
T2154 000:521.852 JLINK_WriteReg(R3, 0x00000000)
T2154 000:521.876 - 0.034ms returns 0
T2154 000:521.904 JLINK_WriteReg(R4, 0x00000000)
T2154 000:521.928 - 0.034ms returns 0
T2154 000:521.956 JLINK_WriteReg(R5, 0x00000000)
T2154 000:521.980 - 0.034ms returns 0
T2154 000:522.008 JLINK_WriteReg(R6, 0x00000000)
T2154 000:522.031 - 0.039ms returns 0
T2154 000:522.065 JLINK_WriteReg(R7, 0x00000000)
T2154 000:522.089 - 0.035ms returns 0
T2154 000:522.117 JLINK_WriteReg(R8, 0x00000000)
T2154 000:522.141 - 0.034ms returns 0
T2154 000:522.169 JLINK_WriteReg(R9, 0x20000134)
T2154 000:522.193 - 0.034ms returns 0
T2154 000:522.221 JLINK_WriteReg(R10, 0x00000000)
T2154 000:522.245 - 0.035ms returns 0
T2154 000:522.273 JLINK_WriteReg(R11, 0x00000000)
T2154 000:522.297 - 0.034ms returns 0
T2154 000:522.325 JLINK_WriteReg(R12, 0x00000000)
T2154 000:522.349 - 0.034ms returns 0
T2154 000:522.377 JLINK_WriteReg(R13 (SP), 0x20001000)
T2154 000:522.402 - 0.036ms returns 0
T2154 000:522.430 JLINK_WriteReg(R14, 0x20000001)
T2154 000:522.454 - 0.034ms returns 0
T2154 000:522.482 JLINK_WriteReg(R15 (PC), 0x200000A8)
T2154 000:522.506 - 0.044ms returns 0
T2154 000:522.551 JLINK_WriteReg(XPSR, 0x01000000)
T2154 000:522.576 - 0.036ms returns 0
T2154 000:522.605 JLINK_WriteReg(MSP, 0x20001000)
T2154 000:522.628 - 0.034ms returns 0
T2154 000:522.657 JLINK_WriteReg(PSP, 0x20001000)
T2154 000:522.680 - 0.034ms returns 0
T2154 000:522.708 JLINK_WriteReg(CFBP, 0x00000000)
T2154 000:522.732 - 0.034ms returns 0
T2154 000:522.761 JLINK_SetBPEx(Addr = 0x20000000, Type = 0xFFFFFFF2)
T2154 000:522.787 - 0.037ms returns 0x00000007
T2154 000:522.816 JLINK_Go()
T2154 000:522.859   CPU_ReadMem(4 bytes @ 0xE0001000)
T2154 000:526.603 - 3.816ms
T2154 000:526.758 JLINK_IsHalted()
T2154 000:527.496 - 0.768ms returns FALSE
T2154 000:527.652 JLINK_HasError()
T2154 000:529.528 JLINK_IsHalted()
T2154 000:530.355 - 0.859ms returns FALSE
T2154 000:530.519 JLINK_HasError()
T2154 000:532.519 JLINK_IsHalted()
T2154 000:533.251 - 0.766ms returns FALSE
T2154 000:533.411 JLINK_HasError()
T2154 000:535.303 JLINK_IsHalted()
T2154 000:536.125 - 0.852ms returns FALSE
T2154 000:536.275 JLINK_HasError()
T2154 000:538.081 JLINK_IsHalted()
T2154 000:538.898 - 0.847ms returns FALSE
T2154 000:539.048 JLINK_HasError()
T2154 000:541.144 JLINK_IsHalted()
T2154 000:541.949 - 0.835ms returns FALSE
T2154 000:542.117 JLINK_HasError()
T2154 000:543.919 JLINK_IsHalted()
T2154 000:544.905 - 1.016ms returns FALSE
T2154 000:545.064 JLINK_HasError()
T2154 000:546.904 JLINK_IsHalted()
T2154 000:550.734   CPU_ReadMem(2 bytes @ 0x20000000)
T2154 000:551.628 - 4.756ms returns TRUE
T2154 000:551.782 JLINK_ReadReg(R15 (PC))
T2154 000:551.825 - 0.057ms returns 0x20000000
T2154 000:551.872 JLINK_ClrBPEx(BPHandle = 0x00000007)
T2154 000:551.901 - 0.040ms returns 0x00
T2154 000:551.953 JLINK_ReadReg(R0)
T2154 000:551.994 - 0.053ms returns 0x00000000
T2154 000:553.789 JLINK_HasError()
T2154 000:553.838 JLINK_WriteReg(R0, 0x08001800)
T2154 000:553.879 - 0.052ms returns 0
T2154 000:553.908 JLINK_WriteReg(R1, 0x00000800)
T2154 000:553.933 - 0.035ms returns 0
T2154 000:553.961 JLINK_WriteReg(R2, 0x000000FF)
T2154 000:553.984 - 0.034ms returns 0
T2154 000:554.012 JLINK_WriteReg(R3, 0x00000000)
T2154 000:554.035 - 0.034ms returns 0
T2154 000:554.063 JLINK_WriteReg(R4, 0x00000000)
T2154 000:554.086 - 0.034ms returns 0
T2154 000:554.114 JLINK_WriteReg(R5, 0x00000000)
T2154 000:554.137 - 0.034ms returns 0
T2154 000:554.176 JLINK_WriteReg(R6, 0x00000000)
T2154 000:554.210 - 0.045ms returns 0
T2154 000:554.238 JLINK_WriteReg(R7, 0x00000000)
T2154 000:554.262 - 0.034ms returns 0
T2154 000:554.290 JLINK_WriteReg(R8, 0x00000000)
T2154 000:554.313 - 0.034ms returns 0
T2154 000:554.341 JLINK_WriteReg(R9, 0x20000134)
T2154 000:554.363 - 0.033ms returns 0
T2154 000:554.391 JLINK_WriteReg(R10, 0x00000000)
T2154 000:554.414 - 0.033ms returns 0
T2154 000:554.442 JLINK_WriteReg(R11, 0x00000000)
T2154 000:554.465 - 0.033ms returns 0
T2154 000:554.492 JLINK_WriteReg(R12, 0x00000000)
T2154 000:554.515 - 0.033ms returns 0
T2154 000:554.543 JLINK_WriteReg(R13 (SP), 0x20001000)
T2154 000:554.568 - 0.035ms returns 0
T2154 000:554.596 JLINK_WriteReg(R14, 0x20000001)
T2154 000:554.619 - 0.034ms returns 0
T2154 000:554.646 JLINK_WriteReg(R15 (PC), 0x20000020)
T2154 000:554.670 - 0.034ms returns 0
T2154 000:554.698 JLINK_WriteReg(XPSR, 0x01000000)
T2154 000:554.721 - 0.034ms returns 0
T2154 000:554.748 JLINK_WriteReg(MSP, 0x20001000)
T2154 000:554.771 - 0.034ms returns 0
T2154 000:554.799 JLINK_WriteReg(PSP, 0x20001000)
T2154 000:554.822 - 0.034ms returns 0
T2154 000:554.850 JLINK_WriteReg(CFBP, 0x00000000)
T2154 000:554.873 - 0.033ms returns 0
T2154 000:554.901 JLINK_SetBPEx(Addr = 0x20000000, Type = 0xFFFFFFF2)
T2154 000:554.928 - 0.037ms returns 0x00000008
T2154 000:554.957 JLINK_Go()
T2154 000:555.000   CPU_ReadMem(4 bytes @ 0xE0001000)
T2154 000:559.980 - 5.068ms
T2154 000:560.151 JLINK_IsHalted()
T2154 000:564.123   CPU_ReadMem(2 bytes @ 0x20000000)
T2154 000:564.982 - 4.873ms returns TRUE
T2154 000:565.152 JLINK_ReadReg(R15 (PC))
T2154 000:565.194 - 0.197ms returns 0x20000000
T2154 000:565.381 JLINK_ClrBPEx(BPHandle = 0x00000008)
T2154 000:565.411 - 0.041ms returns 0x00
T2154 000:565.441 JLINK_ReadReg(R0)
T2154 000:565.465 - 0.035ms returns 0x00000001
T2154 000:565.496 JLINK_HasError()
T2154 000:565.526 JLINK_WriteReg(R0, 0x08001800)
T2154 000:565.558 - 0.043ms returns 0
T2154 000:565.587 JLINK_WriteReg(R1, 0x00000800)
T2154 000:565.610 - 0.034ms returns 0
T2154 000:565.638 JLINK_WriteReg(R2, 0x000000FF)
T2154 000:565.661 - 0.034ms returns 0
T2154 000:565.689 JLINK_WriteReg(R3, 0x00000000)
T2154 000:565.712 - 0.034ms returns 0
T2154 000:565.740 JLINK_WriteReg(R4, 0x00000000)
T2154 000:565.763 - 0.033ms returns 0
T2154 000:565.791 JLINK_WriteReg(R5, 0x00000000)
T2154 000:565.814 - 0.033ms returns 0
T2154 000:565.842 JLINK_WriteReg(R6, 0x00000000)
T2154 000:565.865 - 0.034ms returns 0
T2154 000:565.893 JLINK_WriteReg(R7, 0x00000000)
T2154 000:565.916 - 0.034ms returns 0
T2154 000:565.944 JLINK_WriteReg(R8, 0x00000000)
T2154 000:565.966 - 0.033ms returns 0
T2154 000:565.994 JLINK_WriteReg(R9, 0x20000134)
T2154 000:566.017 - 0.033ms returns 0
T2154 000:566.045 JLINK_WriteReg(R10, 0x00000000)
T2154 000:566.068 - 0.034ms returns 0
T2154 000:566.096 JLINK_WriteReg(R11, 0x00000000)
T2154 000:566.119 - 0.033ms returns 0
T2154 000:566.147 JLINK_WriteReg(R12, 0x00000000)
T2154 000:566.169 - 0.033ms returns 0
T2154 000:566.197 JLINK_WriteReg(R13 (SP), 0x20001000)
T2154 000:566.221 - 0.035ms returns 0
T2154 000:566.249 JLINK_WriteReg(R14, 0x20000001)
T2154 000:566.272 - 0.034ms returns 0
T2154 000:566.300 JLINK_WriteReg(R15 (PC), 0x200000A8)
T2154 000:566.323 - 0.034ms returns 0
T2154 000:566.351 JLINK_WriteReg(XPSR, 0x01000000)
T2154 000:566.374 - 0.033ms returns 0
T2154 000:566.401 JLINK_WriteReg(MSP, 0x20001000)
T2154 000:566.424 - 0.033ms returns 0
T2154 000:566.452 JLINK_WriteReg(PSP, 0x20001000)
T2154 000:566.475 - 0.033ms returns 0
T2154 000:566.502 JLINK_WriteReg(CFBP, 0x00000000)
T2154 000:566.525 - 0.033ms returns 0
T2154 000:566.557 JLINK_SetBPEx(Addr = 0x20000000, Type = 0xFFFFFFF2)
T2154 000:566.583 - 0.037ms returns 0x00000009
T2154 000:566.612 JLINK_Go()
T2154 000:566.656   CPU_ReadMem(4 bytes @ 0xE0001000)
T2154 000:571.702 - 5.132ms
T2154 000:571.868 JLINK_IsHalted()
T2154 000:572.621 - 0.792ms returns FALSE
T2154 000:572.784 JLINK_HasError()
T2154 000:581.455 JLINK_IsHalted()
T2154 000:582.249 - 0.817ms returns FALSE
T2154 000:582.370 JLINK_HasError()
T2154 000:584.437 JLINK_IsHalted()
T2154 000:585.280 - 0.872ms returns FALSE
T2154 000:585.406 JLINK_HasError()
T2154 000:587.432 JLINK_IsHalted()
T2154 000:588.248 - 0.844ms returns FALSE
T2154 000:588.357 JLINK_HasError()
T2154 000:590.154 JLINK_IsHalted()
T2154 000:593.529   CPU_ReadMem(2 bytes @ 0x20000000)
T2154 000:594.156 - 4.033ms returns TRUE
T2154 000:594.267 JLINK_ReadReg(R15 (PC))
T2154 000:594.292 - 0.032ms returns 0x20000000
T2154 000:594.310 JLINK_ClrBPEx(BPHandle = 0x00000009)
T2154 000:594.324 - 0.020ms returns 0x00
T2154 000:594.340 JLINK_ReadReg(R0)
T2154 000:594.353 - 0.019ms returns 0x00000000
T2154 000:594.999 JLINK_HasError()
T2154 000:595.026 JLINK_WriteReg(R0, 0x00000001)
T2154 000:595.042 - 0.023ms returns 0
T2154 000:595.059 JLINK_WriteReg(R1, 0x00000800)
T2154 000:595.072 - 0.019ms returns 0
T2154 000:595.088 JLINK_WriteReg(R2, 0x000000FF)
T2154 000:595.105 - 0.023ms returns 0
T2154 000:595.121 JLINK_WriteReg(R3, 0x00000000)
T2154 000:595.133 - 0.019ms returns 0
T2154 000:595.149 JLINK_WriteReg(R4, 0x00000000)
T2154 000:595.162 - 0.019ms returns 0
T2154 000:595.177 JLINK_WriteReg(R5, 0x00000000)
T2154 000:595.190 - 0.018ms returns 0
T2154 000:595.206 JLINK_WriteReg(R6, 0x00000000)
T2154 000:595.218 - 0.018ms returns 0
T2154 000:595.234 JLINK_WriteReg(R7, 0x00000000)
T2154 000:595.246 - 0.018ms returns 0
T2154 000:595.262 JLINK_WriteReg(R8, 0x00000000)
T2154 000:595.275 - 0.018ms returns 0
T2154 000:595.290 JLINK_WriteReg(R9, 0x20000134)
T2154 000:595.303 - 0.018ms returns 0
T2154 000:595.318 JLINK_WriteReg(R10, 0x00000000)
T2154 000:595.342 - 0.030ms returns 0
T2154 000:595.358 JLINK_WriteReg(R11, 0x00000000)
T2154 000:595.371 - 0.018ms returns 0
T2154 000:595.386 JLINK_WriteReg(R12, 0x00000000)
T2154 000:595.399 - 0.018ms returns 0
T2154 000:595.414 JLINK_WriteReg(R13 (SP), 0x20001000)
T2154 000:595.428 - 0.019ms returns 0
T2154 000:595.443 JLINK_WriteReg(R14, 0x20000001)
T2154 000:595.456 - 0.018ms returns 0
T2154 000:595.472 JLINK_WriteReg(R15 (PC), 0x2000006C)
T2154 000:595.485 - 0.019ms returns 0
T2154 000:595.500 JLINK_WriteReg(XPSR, 0x01000000)
T2154 000:595.513 - 0.018ms returns 0
T2154 000:595.528 JLINK_WriteReg(MSP, 0x20001000)
T2154 000:595.541 - 0.018ms returns 0
T2154 000:595.556 JLINK_WriteReg(PSP, 0x20001000)
T2154 000:595.569 - 0.018ms returns 0
T2154 000:595.584 JLINK_WriteReg(CFBP, 0x00000000)
T2154 000:595.597 - 0.019ms returns 0
T2154 000:595.613 JLINK_SetBPEx(Addr = 0x20000000, Type = 0xFFFFFFF2)
T2154 000:595.628 - 0.020ms returns 0x0000000A
T2154 000:595.644 JLINK_Go()
T2154 000:595.669   CPU_ReadMem(4 bytes @ 0xE0001000)
T2154 000:598.875 - 3.249ms
T2154 000:598.962 JLINK_IsHalted()
T2154 000:602.534   CPU_ReadMem(2 bytes @ 0x20000000)
T2154 000:603.436 - 4.491ms returns TRUE
T2154 000:603.521 JLINK_ReadReg(R15 (PC))
T2154 000:603.544 - 0.030ms returns 0x20000000
T2154 000:603.561 JLINK_ClrBPEx(BPHandle = 0x0000000A)
T2154 000:603.576 - 0.021ms returns 0x00
T2154 000:603.593 JLINK_ReadReg(R0)
T2154 000:603.606 - 0.020ms returns 0x00000000
T2154 000:679.159 JLINK_WriteMem(0x20000000, 0x13C Bytes, ...)
T2154 000:679.186   Data:  00 BE 0A E0 0D 78 2D 06 68 40 08 24 40 00 00 D3 ...
T2154 000:679.225   CPU_WriteMem(316 bytes @ 0x20000000)
T2154 000:682.078 - 2.952ms returns 0x13C
T2154 000:682.292 JLINK_HasError()
T2154 000:682.334 JLINK_WriteReg(R0, 0x08000000)
T2154 000:682.367 - 0.040ms returns 0
T2154 000:682.385 JLINK_WriteReg(R1, 0x00B71B00)
T2154 000:682.398 - 0.025ms returns 0
T2154 000:682.420 JLINK_WriteReg(R2, 0x00000002)
T2154 000:682.432 - 0.017ms returns 0
T2154 000:682.445 JLINK_WriteReg(R3, 0x00000000)
T2154 000:682.456 - 0.016ms returns 0
T2154 000:682.470 JLINK_WriteReg(R4, 0x00000000)
T2154 000:682.481 - 0.016ms returns 0
T2154 000:682.494 JLINK_WriteReg(R5, 0x00000000)
T2154 000:682.505 - 0.016ms returns 0
T2154 000:682.518 JLINK_WriteReg(R6, 0x00000000)
T2154 000:682.529 - 0.016ms returns 0
T2154 000:682.542 JLINK_WriteReg(R7, 0x00000000)
T2154 000:682.553 - 0.016ms returns 0
T2154 000:682.566 JLINK_WriteReg(R8, 0x00000000)
T2154 000:682.577 - 0.016ms returns 0
T2154 000:682.591 JLINK_WriteReg(R9, 0x20000134)
T2154 000:682.602 - 0.016ms returns 0
T2154 000:682.615 JLINK_WriteReg(R10, 0x00000000)
T2154 000:682.626 - 0.016ms returns 0
T2154 000:682.639 JLINK_WriteReg(R11, 0x00000000)
T2154 000:682.650 - 0.016ms returns 0
T2154 000:682.663 JLINK_WriteReg(R12, 0x00000000)
T2154 000:682.674 - 0.015ms returns 0
T2154 000:682.687 JLINK_WriteReg(R13 (SP), 0x20001000)
T2154 000:682.699 - 0.017ms returns 0
T2154 000:682.713 JLINK_WriteReg(R14, 0x20000001)
T2154 000:682.724 - 0.016ms returns 0
T2154 000:682.737 JLINK_WriteReg(R15 (PC), 0x20000038)
T2154 000:682.748 - 0.016ms returns 0
T2154 000:682.761 JLINK_WriteReg(XPSR, 0x01000000)
T2154 000:682.773 - 0.016ms returns 0
T2154 000:682.786 JLINK_WriteReg(MSP, 0x20001000)
T2154 000:682.797 - 0.016ms returns 0
T2154 000:682.810 JLINK_WriteReg(PSP, 0x20001000)
T2154 000:682.821 - 0.016ms returns 0
T2154 000:682.834 JLINK_WriteReg(CFBP, 0x00000000)
T2154 000:682.845 - 0.016ms returns 0
T2154 000:682.859 JLINK_SetBPEx(Addr = 0x20000000, Type = 0xFFFFFFF2)
T2154 000:682.879   CPU_ReadMem(2 bytes @ 0x20000000)
T2154 000:683.692 - 0.850ms returns 0x0000000B
T2154 000:683.767 JLINK_Go()
T2154 000:683.789   CPU_WriteMem(2 bytes @ 0x20000000)
T2154 000:684.518   CPU_ReadMem(4 bytes @ 0xE0001000)
T2154 000:689.822 - 6.078ms
T2154 000:689.905 JLINK_IsHalted()
T2154 000:692.892   CPU_ReadMem(2 bytes @ 0x20000000)
T2154 000:693.413 - 3.519ms returns TRUE
T2154 000:693.479 JLINK_ReadReg(R15 (PC))
T2154 000:693.500 - 0.025ms returns 0x20000000
T2154 000:693.513 JLINK_ClrBPEx(BPHandle = 0x0000000B)
T2154 000:693.523 - 0.015ms returns 0x00
T2154 000:693.535 JLINK_ReadReg(R0)
T2154 000:693.545 - 0.014ms returns 0x00000000
T2154 000:694.234 JLINK_WriteMem(0x2000013C, 0x2C4 Bytes, ...)
T2154 000:694.252   Data:  F8 04 00 20 49 01 00 08 71 06 00 08 69 06 00 08 ...
T2154 000:694.277   CPU_WriteMem(708 bytes @ 0x2000013C)
T2154 000:699.023 - 4.808ms returns 0x2C4
T2154 000:699.085 JLINK_WriteMem(0x20000400, 0x13C Bytes, ...)
T2154 000:699.097   Data:  00 88 20 F4 80 60 39 49 08 80 08 46 00 88 20 F4 ...
T2154 000:699.117   CPU_WriteMem(316 bytes @ 0x20000400)
T2154 000:701.722 - 2.650ms returns 0x13C
T2154 000:701.772 JLINK_HasError()
T2154 000:701.783 JLINK_WriteReg(R0, 0x08000000)
T2154 000:701.798 - 0.018ms returns 0
T2154 000:701.806 JLINK_WriteReg(R1, 0x00000400)
T2154 000:701.813 - 0.009ms returns 0
T2154 000:701.820 JLINK_WriteReg(R2, 0x2000013C)
T2154 000:701.826 - 0.009ms returns 0
T2154 000:701.833 JLINK_WriteReg(R3, 0x00000000)
T2154 000:701.839 - 0.008ms returns 0
T2154 000:701.846 JLINK_WriteReg(R4, 0x00000000)
T2154 000:701.852 - 0.008ms returns 0
T2154 000:701.860 JLINK_WriteReg(R5, 0x00000000)
T2154 000:701.866 - 0.008ms returns 0
T2154 000:701.873 JLINK_WriteReg(R6, 0x00000000)
T2154 000:701.879 - 0.008ms returns 0
T2154 000:701.886 JLINK_WriteReg(R7, 0x00000000)
T2154 000:701.892 - 0.008ms returns 0
T2154 000:701.899 JLINK_WriteReg(R8, 0x00000000)
T2154 000:701.905 - 0.008ms returns 0
T2154 000:701.912 JLINK_WriteReg(R9, 0x20000134)
T2154 000:701.918 - 0.008ms returns 0
T2154 000:701.925 JLINK_WriteReg(R10, 0x00000000)
T2154 000:701.931 - 0.008ms returns 0
T2154 000:701.938 JLINK_WriteReg(R11, 0x00000000)
T2154 000:701.944 - 0.008ms returns 0
T2154 000:701.951 JLINK_WriteReg(R12, 0x00000000)
T2154 000:701.957 - 0.015ms returns 0
T2154 000:701.971 JLINK_WriteReg(R13 (SP), 0x20001000)
T2154 000:701.978 - 0.009ms returns 0
T2154 000:701.985 JLINK_WriteReg(R14, 0x20000001)
T2154 000:701.991 - 0.008ms returns 0
T2154 000:701.999 JLINK_WriteReg(R15 (PC), 0x200000D8)
T2154 000:702.005 - 0.009ms returns 0
T2154 000:702.012 JLINK_WriteReg(XPSR, 0x01000000)
T2154 000:702.018 - 0.008ms returns 0
T2154 000:702.025 JLINK_WriteReg(MSP, 0x20001000)
T2154 000:702.031 - 0.008ms returns 0
T2154 000:702.038 JLINK_WriteReg(PSP, 0x20001000)
T2154 000:702.044 - 0.008ms returns 0
T2154 000:702.051 JLINK_WriteReg(CFBP, 0x00000000)
T2154 000:702.057 - 0.008ms returns 0
T2154 000:702.065 JLINK_SetBPEx(Addr = 0x20000000, Type = 0xFFFFFFF2)
T2154 000:702.072 - 0.010ms returns 0x0000000C
T2154 000:702.080 JLINK_Go()
T2154 000:702.093   CPU_ReadMem(4 bytes @ 0xE0001000)
T2154 000:706.697 - 4.636ms
T2154 000:706.759 JLINK_IsHalted()
T2154 000:707.507 - 0.766ms returns FALSE
T2154 000:707.571 JLINK_HasError()
T2154 000:711.456 JLINK_IsHalted()
T2154 000:712.374 - 0.987ms returns FALSE
T2154 000:712.560 JLINK_HasError()
T2154 000:713.825 JLINK_IsHalted()
T2154 000:714.930 - 1.126ms returns FALSE
T2154 000:715.018 JLINK_HasError()
T2154 000:717.147 JLINK_IsHalted()
T2154 000:718.053 - 0.925ms returns FALSE
T2154 000:718.116 JLINK_HasError()
T2154 000:719.330 JLINK_IsHalted()
T2154 000:720.261 - 0.949ms returns FALSE
T2154 000:720.329 JLINK_HasError()
T2154 000:722.332 JLINK_IsHalted()
T2154 000:723.272 - 0.961ms returns FALSE
T2154 000:723.346 JLINK_HasError()
T2154 000:724.433 JLINK_IsHalted()
T2154 000:725.375 - 0.960ms returns FALSE
T2154 000:725.436 JLINK_HasError()
T2154 000:726.637 JLINK_IsHalted()
T2154 000:727.571 - 0.978ms returns FALSE
T2154 000:727.716 JLINK_HasError()
T2154 000:729.629 JLINK_IsHalted()
T2154 000:733.710   CPU_ReadMem(2 bytes @ 0x20000000)
T2154 000:734.648 - 5.037ms returns TRUE
T2154 000:734.713 JLINK_ReadReg(R15 (PC))
T2154 000:734.727 - 0.017ms returns 0x20000000
T2154 000:734.735 JLINK_ClrBPEx(BPHandle = 0x0000000C)
T2154 000:734.743 - 0.010ms returns 0x00
T2154 000:734.751 JLINK_ReadReg(R0)
T2154 000:734.769 - 0.021ms returns 0x00000000
T2154 000:735.325 JLINK_WriteMem(0x2000013C, 0x2C4 Bytes, ...)
T2154 000:735.342   Data:  10 BD 00 00 0D 0A 20 49 6E 69 74 20 44 72 69 76 ...
T2154 000:735.361   CPU_WriteMem(708 bytes @ 0x2000013C)
T2154 000:740.919 - 5.612ms returns 0x2C4
T2154 000:740.979 JLINK_WriteMem(0x20000400, 0x13C Bytes, ...)
T2154 000:740.989   Data:  08 60 00 24 0E E0 01 20 A0 40 0A 49 09 68 88 42 ...
T2154 000:741.008   CPU_WriteMem(316 bytes @ 0x20000400)
T2154 000:743.680 - 2.720ms returns 0x13C
T2154 000:743.748 JLINK_HasError()
T2154 000:743.761 JLINK_WriteReg(R0, 0x08000400)
T2154 000:743.773 - 0.015ms returns 0
T2154 000:743.782 JLINK_WriteReg(R1, 0x00000400)
T2154 000:743.789 - 0.010ms returns 0
T2154 000:743.797 JLINK_WriteReg(R2, 0x2000013C)
T2154 000:743.804 - 0.011ms returns 0
T2154 000:743.814 JLINK_WriteReg(R3, 0x00000000)
T2154 000:743.820 - 0.009ms returns 0
T2154 000:743.828 JLINK_WriteReg(R4, 0x00000000)
T2154 000:743.834 - 0.008ms returns 0
T2154 000:743.841 JLINK_WriteReg(R5, 0x00000000)
T2154 000:743.848 - 0.010ms returns 0
T2154 000:743.855 JLINK_WriteReg(R6, 0x00000000)
T2154 000:743.861 - 0.009ms returns 0
T2154 000:743.869 JLINK_WriteReg(R7, 0x00000000)
T2154 000:743.875 - 0.009ms returns 0
T2154 000:743.883 JLINK_WriteReg(R8, 0x00000000)
T2154 000:743.897 - 0.017ms returns 0
T2154 000:743.905 JLINK_WriteReg(R9, 0x20000134)
T2154 000:743.911 - 0.009ms returns 0
T2154 000:743.919 JLINK_WriteReg(R10, 0x00000000)
T2154 000:743.926 - 0.009ms returns 0
T2154 000:743.933 JLINK_WriteReg(R11, 0x00000000)
T2154 000:743.939 - 0.008ms returns 0
T2154 000:743.947 JLINK_WriteReg(R12, 0x00000000)
T2154 000:743.953 - 0.009ms returns 0
T2154 000:743.960 JLINK_WriteReg(R13 (SP), 0x20001000)
T2154 000:743.967 - 0.009ms returns 0
T2154 000:743.974 JLINK_WriteReg(R14, 0x20000001)
T2154 000:743.980 - 0.009ms returns 0
T2154 000:743.988 JLINK_WriteReg(R15 (PC), 0x200000D8)
T2154 000:743.995 - 0.010ms returns 0
T2154 000:744.003 JLINK_WriteReg(XPSR, 0x01000000)
T2154 000:744.010 - 0.009ms returns 0
T2154 000:744.017 JLINK_WriteReg(MSP, 0x20001000)
T2154 000:744.023 - 0.009ms returns 0
T2154 000:744.031 JLINK_WriteReg(PSP, 0x20001000)
T2154 000:744.038 - 0.009ms returns 0
T2154 000:744.045 JLINK_WriteReg(CFBP, 0x00000000)
T2154 000:744.051 - 0.008ms returns 0
T2154 000:744.058 JLINK_SetBPEx(Addr = 0x20000000, Type = 0xFFFFFFF2)
T2154 000:744.067 - 0.013ms returns 0x0000000D
T2154 000:744.077 JLINK_Go()
T2154 000:744.091   CPU_ReadMem(4 bytes @ 0xE0001000)
T2154 000:747.303 - 3.238ms
T2154 000:747.345 JLINK_IsHalted()
T2154 000:747.891 - 0.554ms returns FALSE
T2154 000:747.930 JLINK_HasError()
T2154 000:749.159 JLINK_IsHalted()
T2154 000:749.941 - 0.789ms returns FALSE
T2154 000:749.978 JLINK_HasError()
T2154 000:751.179 JLINK_IsHalted()
T2154 000:751.958 - 0.787ms returns FALSE
T2154 000:751.996 JLINK_HasError()
T2154 000:753.133 JLINK_IsHalted()
T2154 000:754.013 - 0.887ms returns FALSE
T2154 000:754.050 JLINK_HasError()
T2154 000:756.132 JLINK_IsHalted()
T2154 000:756.974 - 0.850ms returns FALSE
T2154 000:757.011 JLINK_HasError()
T2154 000:758.221 JLINK_IsHalted()
T2154 000:758.997 - 0.786ms returns FALSE
T2154 000:759.048 JLINK_HasError()
T2154 000:760.976 JLINK_IsHalted()
T2154 000:761.661 - 0.716ms returns FALSE
T2154 000:761.793 JLINK_HasError()
T2154 000:763.044 JLINK_IsHalted()
T2154 000:763.696 - 0.665ms returns FALSE
T2154 000:763.747 JLINK_HasError()
T2154 000:765.042 JLINK_IsHalted()
T2154 000:765.577 - 0.551ms returns FALSE
T2154 000:765.643 JLINK_HasError()
T2154 000:767.052 JLINK_IsHalted()
T2154 000:767.549 - 0.506ms returns FALSE
T2154 000:767.590 JLINK_HasError()
T2154 000:769.071 JLINK_IsHalted()
T2154 000:772.025   CPU_ReadMem(2 bytes @ 0x20000000)
T2154 000:772.614 - 3.554ms returns TRUE
T2154 000:772.660 JLINK_ReadReg(R15 (PC))
T2154 000:772.672 - 0.015ms returns 0x20000000
T2154 000:772.681 JLINK_ClrBPEx(BPHandle = 0x0000000D)
T2154 000:772.688 - 0.010ms returns 0x00
T2154 000:772.701 JLINK_ReadReg(R0)
T2154 000:772.711 - 0.013ms returns 0x00000000
T2154 000:773.292 JLINK_WriteMem(0x2000013C, 0x2C4 Bytes, ...)
T2154 000:773.305   Data:  B8 46 01 22 47 49 00 E0 07 43 14 F8 01 3F 20 3B ...
T2154 000:773.327   CPU_WriteMem(708 bytes @ 0x2000013C)
T2154 000:778.076 - 4.799ms returns 0x2C4
T2154 000:778.130 JLINK_WriteMem(0x20000400, 0x13C Bytes, ...)
T2154 000:778.139   Data:  28 46 01 F0 31 F8 08 21 28 46 01 F0 35 F8 28 46 ...
T2154 000:778.159   CPU_WriteMem(316 bytes @ 0x20000400)
T2154 000:780.609 - 2.489ms returns 0x13C
T2154 000:780.655 JLINK_HasError()
T2154 000:780.667 JLINK_WriteReg(R0, 0x08000800)
T2154 000:780.678 - 0.015ms returns 0
T2154 000:780.687 JLINK_WriteReg(R1, 0x00000400)
T2154 000:780.694 - 0.010ms returns 0
T2154 000:780.702 JLINK_WriteReg(R2, 0x2000013C)
T2154 000:780.709 - 0.010ms returns 0
T2154 000:780.717 JLINK_WriteReg(R3, 0x00000000)
T2154 000:780.724 - 0.010ms returns 0
T2154 000:780.732 JLINK_WriteReg(R4, 0x00000000)
T2154 000:780.739 - 0.009ms returns 0
T2154 000:780.747 JLINK_WriteReg(R5, 0x00000000)
T2154 000:780.753 - 0.009ms returns 0
T2154 000:780.761 JLINK_WriteReg(R6, 0x00000000)
T2154 000:780.768 - 0.009ms returns 0
T2154 000:780.776 JLINK_WriteReg(R7, 0x00000000)
T2154 000:780.782 - 0.009ms returns 0
T2154 000:780.790 JLINK_WriteReg(R8, 0x00000000)
T2154 000:780.797 - 0.010ms returns 0
T2154 000:780.805 JLINK_WriteReg(R9, 0x20000134)
T2154 000:780.812 - 0.009ms returns 0
T2154 000:780.819 JLINK_WriteReg(R10, 0x00000000)
T2154 000:780.826 - 0.009ms returns 0
T2154 000:780.834 JLINK_WriteReg(R11, 0x00000000)
T2154 000:780.841 - 0.009ms returns 0
T2154 000:780.849 JLINK_WriteReg(R12, 0x00000000)
T2154 000:780.855 - 0.009ms returns 0
T2154 000:780.863 JLINK_WriteReg(R13 (SP), 0x20001000)
T2154 000:780.871 - 0.010ms returns 0
T2154 000:780.878 JLINK_WriteReg(R14, 0x20000001)
